T92D4 000:012.596   SEGGER J-Link V6.80a Log File
T92D4 000:012.845   DLL Compiled: May 29 2020 16:27:00
T92D4 000:012.883   Logging started @ 2020-11-15 15:00
T92D4 000:012.922 JLINK_SetWarnOutHandler(...)
T92D4 000:012.961 - 0.055ms
T92D4 000:013.006 JLINK_OpenEx(...)
T92D4 000:014.400   Firmware: J-Link OB-SAM3U128 V3 compiled Apr 16 2020 17:20:41
T92D4 000:016.718   Hardware: V3.00
T92D4 000:016.766   S/N: 483069605
T92D4 000:016.794   OEM: SEGGER
T92D4 000:016.826   Feature(s): None
T92D4 000:017.893   TELNET listener socket opened on port 19021
T92D4 000:018.130   WEBSRV Starting webserver
T92D4 000:018.298   WEBSRV Webserver running on local port 19080
T92D4 000:018.332 - 5.335ms returns "O.K."
T92D4 000:018.368 JLINK_GetEmuCaps()
T92D4 000:018.387 - 0.028ms returns 0xB9FE5BBF
T92D4 000:018.413 JLINK_TIF_GetAvailable(...)
T92D4 000:018.621 - 0.228ms
T92D4 000:018.660 JLINK_SetErrorOutHandler(...)
T92D4 000:018.681 - 0.041ms
T92D4 000:018.738 JLINK_ExecCommand("ProjectFile = "C:\Users\sonse\Desktop\SDK1300\nRF5SDK1300\examples\peripheral\ble_app_uart__saadc_timer_driven__scan_modeff\pca10040\s132\arm5_no_packs\JLinkSettings.ini"", ...). 
T92D4 000:029.423   Ref file found at: C:\Keil_v5\ARM\Segger\JLinkDevices.ref
T92D4 000:029.622   XML referenced by ref file: C:\Program Files (x86)\SEGGER\JLink\JLinkDevices.xml
T92D4 000:030.523   C:\Program Files (x86)\SEGGER\JLink\JLinkDevices.xml evaluated successfully.
T92D4 000:098.720 - 80.012ms returns 0x00
T92D4 000:098.787 JLINK_ExecCommand("Device = nRF52832_xxAA", ...). 
T92D4 000:099.198   Device "NRF52832_XXAA" selected.
T92D4 000:100.451 - 1.660ms returns 0x00
T92D4 000:100.492 JLINK_ExecCommand("DisableConnectionTimeout", ...). 
T92D4 000:100.521 - 0.038ms returns 0x01
T92D4 000:100.572 JLINK_GetHardwareVersion()
T92D4 000:100.594 - 0.032ms returns 0x7530
T92D4 000:100.630 JLINK_GetDLLVersion()  returns 68001
T92D4 000:100.661 JLINK_GetFirmwareString(...)
T92D4 000:100.683 - 0.032ms
T92D4 000:100.730 JLINK_GetDLLVersion()  returns 68001
T92D4 000:100.756 JLINK_GetCompileDateTime()
T92D4 000:100.777 - 0.031ms
T92D4 000:100.837 JLINK_GetFirmwareString(...)
T92D4 000:100.859 - 0.032ms
T92D4 000:100.888 JLINK_GetHardwareVersion()
T92D4 000:100.910 - 0.032ms returns 0x7530
T92D4 000:100.954 JLINK_TIF_Select(JLINKARM_TIF_SWD)
T92D4 000:102.092 - 1.160ms returns 0x00
T92D4 000:102.149 JLINK_SetSpeed(5000)
T92D4 000:102.312 - 0.186ms
T92D4 000:102.355 JLINK_GetId()
T92D4 000:102.619   InitTarget() start
T92D4 000:102.665    J-Link Script File: Executing InitTarget()
T92D4 000:106.147   InitTarget() end
T92D4 000:106.918   Found SW-DP with ID 0x2BA01477
T92D4 000:108.811   DPIDR: 0x2BA01477
T92D4 000:108.866   Scanning AP map to find all available APs
T92D4 000:109.838   AP[2]: Stopped AP scan as end of AP map has been reached
T92D4 000:109.883   AP[0]: AHB-AP (IDR: 0x24770011)
T92D4 000:109.917   AP[1]: JTAG-AP (IDR: 0x02880000)
T92D4 000:109.950   Iterating through AP map to find AHB-AP to use
T92D4 000:110.692   AP[0]: Core found
T92D4 000:110.736   AP[0]: AHB-AP ROM base: 0xE00FF000
T92D4 000:111.178   CPUID register: 0x410FC241. Implementer code: 0x41 (ARM)
T92D4 000:111.221   Found Cortex-M4 r0p1, Little endian.
T92D4 000:213.201   -- Max. mem block: 0x00004F88
T92D4 000:213.480   CPU_ReadMem(4 bytes @ 0xE000EDF0)
T92D4 000:214.558   CPU_WriteMem(4 bytes @ 0xE000EDF0)
T92D4 000:215.355   CPU_ReadMem(4 bytes @ 0xE0002000)
T92D4 000:216.265   FPUnit: 6 code (BP) slots and 2 literal slots
T92D4 000:216.442   CPU_ReadMem(4 bytes @ 0xE000EDFC)
T92D4 000:217.162   CPU_WriteMem(4 bytes @ 0xE000EDFC)
T92D4 000:218.015   CPU_ReadMem(4 bytes @ 0xE0001000)
T92D4 000:218.727   CPU_WriteMem(4 bytes @ 0xE0001000)
T92D4 000:219.593   CPU_ReadMem(4 bytes @ 0xE000ED88)
T92D4 000:220.428   CPU_WriteMem(4 bytes @ 0xE000ED88)
T92D4 000:221.262   CPU_ReadMem(4 bytes @ 0xE000ED88)
T92D4 000:222.112   CPU_WriteMem(4 bytes @ 0xE000ED88)
T92D4 000:223.054   CoreSight components:
T92D4 000:223.269   ROMTbl[0] @ E00FF000
T92D4 000:223.398   CPU_ReadMem(64 bytes @ 0xE00FF000)
T92D4 000:224.653   CPU_ReadMem(32 bytes @ 0xE000EFE0)
T92D4 000:225.719   ROMTbl[0][0]: E000E000, CID: B105E00D, PID: 000BB00C SCS-M7
T92D4 000:225.900   CPU_ReadMem(32 bytes @ 0xE0001FE0)
T92D4 000:226.891   ROMTbl[0][1]: E0001000, CID: B105E00D, PID: 003BB002 DWT
T92D4 000:227.215   CPU_ReadMem(32 bytes @ 0xE0002FE0)
T92D4 000:228.120   ROMTbl[0][2]: E0002000, CID: B105E00D, PID: 002BB003 FPB
T92D4 000:228.293   CPU_ReadMem(32 bytes @ 0xE0000FE0)
T92D4 000:229.258   ROMTbl[0][3]: E0000000, CID: B105E00D, PID: 003BB001 ITM
T92D4 000:229.434   CPU_ReadMem(32 bytes @ 0xE0040FE0)
T92D4 000:230.371   ROMTbl[0][4]: E0040000, CID: B105900D, PID: 000BB9A1 TPIU
T92D4 000:230.551   CPU_ReadMem(32 bytes @ 0xE0041FE0)
T92D4 000:231.520   ROMTbl[0][5]: E0041000, CID: B105900D, PID: 000BB925 ETM
T92D4 000:232.293 - 130.022ms   returns 0x2BA01477
T92D4 000:232.457 JLINK_GetDLLVersion()  returns 68001
T92D4 000:232.561 JLINK_CORE_GetFound()
T92D4 000:232.643 - 0.122ms returns 0xE0000FF
T92D4 000:232.770 JLINK_GetDebugInfo(0x100 = JLINKARM_ROM_TABLE_ADDR_INDEX)
T92D4 000:232.861   Value=0xE00FF000
T92D4 000:232.971 - 0.239ms returns 0x00
T92D4 000:233.302 JLINK_GetDebugInfo(0x100 = JLINKARM_ROM_TABLE_ADDR_INDEX)
T92D4 000:233.440   Value=0xE00FF000
T92D4 000:233.559 - 0.297ms returns 0x00
T92D4 000:233.650 JLINK_GetDebugInfo(0x101 = JLINKARM_DEBUG_INFO_ETM_ADDR_INDEX)
T92D4 000:233.732   Value=0xE0041000
T92D4 000:233.845 - 0.234ms returns 0x00
T92D4 000:233.936   JLINK_ReadMemEx(0xE0041FD0, 0x0020 Bytes, ..., Flags = 0x02000004)
T92D4 000:234.186   CPU_ReadMem(32 bytes @ 0xE0041FD0)
T92D4 000:235.150   Data:  04 00 00 00 00 00 00 00 00 00 00 00 00 00 00 00 ...
T92D4 000:235.321 - 1.427ms returns 0x20
T92D4 000:235.418 JLINK_GetDebugInfo(0x102 = JLINKARM_DEBUG_INFO_MTB_ADDR_INDEX)
T92D4 000:235.499   Value=0x00000000
T92D4 000:235.609 - 0.228ms returns 0x00
T92D4 000:235.694 JLINK_GetDebugInfo(0x103 = JLINKARM_DEBUG_INFO_TPIU_ADDR_INDEX)
T92D4 000:235.771   Value=0xE0040000
T92D4 000:235.882 - 0.225ms returns 0x00
T92D4 000:235.965 JLINK_GetDebugInfo(0x104 = JLINKARM_DEBUG_INFO_ITM_ADDR_INDEX)
T92D4 000:236.041   Value=0xE0000000
T92D4 000:236.181 - 0.254ms returns 0x00
T92D4 000:236.266 JLINK_GetDebugInfo(0x105 = JLINKARM_DEBUG_INFO_DWT_ADDR_INDEX)
T92D4 000:236.343   Value=0xE0001000
T92D4 000:236.452 - 0.223ms returns 0x00
T92D4 000:236.535 JLINK_GetDebugInfo(0x106 = JLINKARM_DEBUG_INFO_FPB_ADDR_INDEX)
T92D4 000:236.611   Value=0xE0002000
T92D4 000:236.723 - 0.227ms returns 0x00
T92D4 000:236.809 JLINK_GetDebugInfo(0x107 = JLINKARM_DEBUG_INFO_NVIC_ADDR_INDEX)
T92D4 000:236.885   Value=0xE000E000
T92D4 000:236.997 - 0.235ms returns 0x00
T92D4 000:237.090 JLINK_GetDebugInfo(0x10C = JLINKARM_DEBUG_INFO_DBG_ADDR_INDEX)
T92D4 000:237.172   Value=0xE000EDF0
T92D4 000:237.282 - 0.230ms returns 0x00
T92D4 000:237.365 JLINK_GetDebugInfo(0x01 = Unknown)
T92D4 000:237.469   Value=0x00000001
T92D4 000:237.579 - 0.250ms returns 0x00
T92D4 000:237.662 JLINK_ReadMemU32(0xE000ED00, 0x0001 Items, ...)
T92D4 000:237.761   CPU_ReadMem(4 bytes @ 0xE000ED00)
T92D4 000:238.572   Data:  41 C2 0F 41
T92D4 000:238.744   Debug reg: CPUID
T92D4 000:238.861 - 1.239ms returns 1
T92D4 000:238.961 JLINK_GetDebugInfo(0x10F = JLINKARM_DEBUG_INFO_HAS_CORTEX_M_SECURITY_EXT_INDEX)
T92D4 000:239.059   Value=0x00000000
T92D4 000:239.175 - 0.254ms returns 0x00
T92D4 000:239.276 JLINK_SetResetType(JLINKARM_CM3_RESET_TYPE_NORMAL)
T92D4 000:239.357 - 0.121ms returns JLINKARM_CM3_RESET_TYPE_NORMAL
T92D4 000:239.446 JLINK_Reset()
T92D4 000:239.593   CPU is running
T92D4 000:239.724   CPU_WriteMem(4 bytes @ 0xE000EDF0)
T92D4 000:240.572   CPU is running
T92D4 000:240.749   CPU_WriteMem(4 bytes @ 0xE000EDFC)
T92D4 000:241.566   Reset: Halt core after reset via DEMCR.VC_CORERESET.
T92D4 000:242.706   Reset: Reset device via AIRCR.SYSRESETREQ.
T92D4 000:242.878   CPU is running
T92D4 000:243.004   CPU_WriteMem(4 bytes @ 0xE000ED0C)
T92D4 000:297.212   CPU_ReadMem(4 bytes @ 0xE000EDF0)
T92D4 000:298.098   CPU_ReadMem(4 bytes @ 0xE000EDF0)
T92D4 000:298.900   CPU is running
T92D4 000:299.073   CPU_WriteMem(4 bytes @ 0xE000EDF0)
T92D4 000:299.852   CPU is running
T92D4 000:300.026   CPU_WriteMem(4 bytes @ 0xE000EDFC)
T92D4 000:306.065   CPU_ReadMem(4 bytes @ 0xE000EDF0)
T92D4 000:310.442   CPU_WriteMem(4 bytes @ 0xE0002000)
T92D4 000:311.411   CPU_ReadMem(4 bytes @ 0xE000EDFC)
T92D4 000:312.255   CPU_ReadMem(4 bytes @ 0xE0001000)
T92D4 000:313.075 - 73.714ms
T92D4 000:313.291 JLINK_ReadReg(R15 (PC))
T92D4 000:313.428 - 0.177ms returns 0x000008E4
T92D4 000:313.524 JLINK_ReadReg(XPSR)
T92D4 000:313.605 - 0.120ms returns 0x01000000
T92D4 000:313.698 JLINK_Halt()
T92D4 000:313.774 - 0.122ms returns 0x00
T92D4 000:313.900 JLINK_ReadMemU32(0xE000EDF0, 0x0001 Items, ...)
T92D4 000:314.041   CPU_ReadMem(4 bytes @ 0xE000EDF0)
T92D4 000:314.805   Data:  03 00 03 00
T92D4 000:314.978   Debug reg: DHCSR
T92D4 000:315.095 - 1.235ms returns 1
T92D4 000:315.204 JLINK_WriteU32(0xE000EDF0, 0xA05F0003)
T92D4 000:315.289   Debug reg: DHCSR
T92D4 000:315.499   CPU_WriteMem(4 bytes @ 0xE000EDF0)
T92D4 000:316.216 - 1.100ms returns 0
T92D4 000:316.379 JLINK_WriteU32(0xE000EDFC, 0x01000000)
T92D4 000:316.469   Debug reg: DEMCR
T92D4 000:316.610   CPU_WriteMem(4 bytes @ 0xE000EDFC)
T92D4 000:317.399 - 1.105ms returns 0
T92D4 000:317.807 JLINK_GetHWStatus(...)
T92D4 000:318.385 - 0.664ms returns 0x00
T92D4 000:318.621 JLINK_GetNumBPUnits(Type = 0xFFFFFF00)
T92D4 000:318.713 - 0.131ms returns 0x06
T92D4 000:318.806 JLINK_GetNumBPUnits(Type = 0xF0)
T92D4 000:318.884 - 0.116ms returns 0x2000
T92D4 000:318.968 JLINK_GetNumWPUnits()
T92D4 000:319.044 - 0.114ms returns 0x04
T92D4 000:319.180 JLINK_GetSpeed()
T92D4 000:319.261 - 0.118ms returns 0xA6B
T92D4 000:319.378 JLINK_ReadMemU32(0xE000E004, 0x0001 Items, ...)
T92D4 000:319.480   CPU_ReadMem(4 bytes @ 0xE000E004)
T92D4 000:320.233   Data:  01 00 00 00
T92D4 000:320.471 - 1.153ms returns 1
T92D4 000:320.613 JLINK_ReadMemU32(0xE000E004, 0x0001 Items, ...)
T92D4 000:320.757   CPU_ReadMem(4 bytes @ 0xE000E004)
T92D4 000:321.535   Data:  01 00 00 00
T92D4 000:321.718 - 1.147ms returns 1
T92D4 000:321.840 JLINK_WriteMemEx(0xE0001000, 0x001C Bytes, ..., Flags = 0x02000004)
T92D4 000:321.938   Data:  01 00 00 00 00 00 00 00 00 00 00 00 00 00 00 00 ...
T92D4 000:324.077   CPU_WriteMem(28 bytes @ 0xE0001000)
T92D4 000:324.907 - 3.155ms returns 0x1C
T92D4 000:325.115 JLINK_ReadReg(R15 (PC))
T92D4 000:325.217 - 0.145ms returns 0x000008E4
T92D4 000:325.311 JLINK_ReadReg(XPSR)
T92D4 000:325.394 - 0.124ms returns 0x01000000
T92D4 000:344.529   JLINK_ReadMemEx(0xE0001004, 0x0004 Bytes, ..., Flags = 0x02000000)
T92D4 000:344.775   Data:  00 00 00 00
T92D4 000:344.917   Debug reg: DWT_CYCCNT
T92D4 000:345.064 - 0.578ms returns 0x04
T92D4 000:543.762 JLINK_SetResetType(JLINKARM_CM3_RESET_TYPE_NORMAL)
T92D4 000:543.922 - 0.203ms returns JLINKARM_CM3_RESET_TYPE_NORMAL
T92D4 000:544.016 JLINK_Reset()
T92D4 000:544.133   CPU_WriteMem(4 bytes @ 0xE000EDF0)
T92D4 000:544.941   CPU_WriteMem(4 bytes @ 0xE000EDFC)
T92D4 000:545.874   Reset: Halt core after reset via DEMCR.VC_CORERESET.
T92D4 000:547.122   Reset: Reset device via AIRCR.SYSRESETREQ.
T92D4 000:547.310   CPU_WriteMem(4 bytes @ 0xE000ED0C)
T92D4 000:601.001   CPU_ReadMem(4 bytes @ 0xE000EDF0)
T92D4 000:601.790   CPU_ReadMem(4 bytes @ 0xE000EDF0)
T92D4 000:602.538   CPU_WriteMem(4 bytes @ 0xE000EDF0)
T92D4 000:603.315   CPU_WriteMem(4 bytes @ 0xE000EDFC)
T92D4 000:610.085   CPU_ReadMem(4 bytes @ 0xE000EDF0)
T92D4 000:614.186   CPU_WriteMem(4 bytes @ 0xE0002000)
T92D4 000:614.939   CPU_ReadMem(4 bytes @ 0xE000EDFC)
T92D4 000:615.680   CPU_ReadMem(4 bytes @ 0xE0001000)
T92D4 000:616.456 - 72.525ms
T92D4 000:616.822 JLINK_ReadReg(R15 (PC))
T92D4 000:616.929 - 0.219ms returns 0x000008E4
T92D4 000:617.151 JLINK_ReadReg(XPSR)
T92D4 000:617.252 - 0.143ms returns 0x01000000
T92D4 000:617.548   JLINK_ReadMemEx(0x000008E4, 0x003C Bytes, ..., Flags = 0x02000000)
T92D4 000:617.711   CPU_ReadMem(128 bytes @ 0x000008C0)
T92D4 000:619.123    -- Updating C cache (128 bytes @ 0x000008C0)
T92D4 000:619.353    -- Read from C cache (60 bytes @ 0x000008E4)
T92D4 000:619.479   Data:  06 4B 18 47 06 4A 10 60 01 68 81 F3 08 88 40 68 ...
T92D4 000:619.590 - 2.083ms returns 0x3C
T92D4 000:619.688   JLINK_ReadMemEx(0x000008E4, 0x0002 Bytes, ..., Flags = 0x02000000)
T92D4 000:619.807    -- Read from C cache (2 bytes @ 0x000008E4)
T92D4 000:619.918   Data:  06 4B
T92D4 000:620.066 - 0.456ms returns 0x02
T92D4 000:620.204   JLINK_ReadMemEx(0x000008E6, 0x0002 Bytes, ..., Flags = 0x02000000)
T92D4 000:620.322    -- Read from C cache (2 bytes @ 0x000008E6)
T92D4 000:620.435   Data:  18 47
T92D4 000:620.544 - 0.380ms returns 0x02
T92D4 000:620.680   JLINK_ReadMemEx(0x000008E6, 0x0002 Bytes, ..., Flags = 0x02000000)
T92D4 000:620.801    -- Read from C cache (2 bytes @ 0x000008E6)
T92D4 000:620.913   Data:  18 47
T92D4 000:621.029 - 0.388ms returns 0x02
T92D4 000:621.115   JLINK_ReadMemEx(0x000008E8, 0x003C Bytes, ..., Flags = 0x02000000)
T92D4 000:621.228    -- Read from C cache (60 bytes @ 0x000008E8)
T92D4 000:621.342   Data:  06 4A 10 60 01 68 81 F3 08 88 40 68 00 47 00 00 ...
T92D4 000:621.451 - 0.375ms returns 0x3C
T92D4 000:621.537   JLINK_ReadMemEx(0x000008E8, 0x0002 Bytes, ..., Flags = 0x02000000)
T92D4 000:621.650    -- Read from C cache (2 bytes @ 0x000008E8)
T92D4 000:621.759   Data:  06 4A
T92D4 000:621.868 - 0.371ms returns 0x02
T92D4 000:621.983   JLINK_ReadMemEx(0x000008E8, 0x003C Bytes, ..., Flags = 0x02000000)
T92D4 000:622.124    -- Read from C cache (60 bytes @ 0x000008E8)
T92D4 000:622.239   Data:  06 4A 10 60 01 68 81 F3 08 88 40 68 00 47 00 00 ...
T92D4 000:622.347 - 0.403ms returns 0x3C
T92D4 000:622.432   JLINK_ReadMemEx(0x000008E8, 0x0002 Bytes, ..., Flags = 0x02000000)
T92D4 000:622.549    -- Read from C cache (2 bytes @ 0x000008E8)
T92D4 000:622.662   Data:  06 4A
T92D4 000:622.774 - 0.382ms returns 0x02
T92D4 000:622.862   JLINK_ReadMemEx(0x000008EA, 0x0002 Bytes, ..., Flags = 0x02000000)
T92D4 000:622.979    -- Read from C cache (2 bytes @ 0x000008EA)
T92D4 000:623.091   Data:  10 60
T92D4 000:623.202 - 0.379ms returns 0x02
T92D4 000:623.313   JLINK_ReadMemEx(0x000008EA, 0x0002 Bytes, ..., Flags = 0x02000000)
T92D4 000:623.434    -- Read from C cache (2 bytes @ 0x000008EA)
T92D4 000:623.546   Data:  10 60
T92D4 000:623.656 - 0.382ms returns 0x02
T92D4 000:623.741   JLINK_ReadMemEx(0x000008EC, 0x003C Bytes, ..., Flags = 0x02000000)
T92D4 000:623.855    -- Read from C cache (60 bytes @ 0x000008EC)
T92D4 000:623.976   Data:  01 68 81 F3 08 88 40 68 00 47 00 00 68 09 00 00 ...
T92D4 000:624.106 - 0.403ms returns 0x3C
T92D4 000:624.191   JLINK_ReadMemEx(0x000008EC, 0x0002 Bytes, ..., Flags = 0x02000000)
T92D4 000:624.305    -- Read from C cache (2 bytes @ 0x000008EC)
T92D4 000:624.416   Data:  01 68
T92D4 000:624.525 - 0.373ms returns 0x02
T92D4 007:369.446 JLINK_ReadReg(R0)
T92D4 007:370.275 - 0.910ms returns 0x00000000
T92D4 007:370.415 JLINK_ReadReg(R1)
T92D4 007:370.494 - 0.117ms returns 0x00000000
T92D4 007:370.576 JLINK_ReadReg(R2)
T92D4 007:370.648 - 0.108ms returns 0x00000000
T92D4 007:370.728 JLINK_ReadReg(R3)
T92D4 007:370.811 - 0.119ms returns 0x00000000
T92D4 007:370.891 JLINK_ReadReg(R4)
T92D4 007:370.963 - 0.107ms returns 0x00000000
T92D4 007:371.041 JLINK_ReadReg(R5)
T92D4 007:371.113 - 0.108ms returns 0x00000000
T92D4 007:371.192 JLINK_ReadReg(R6)
T92D4 007:371.264 - 0.107ms returns 0x00000000
T92D4 007:371.343 JLINK_ReadReg(R7)
T92D4 007:371.414 - 0.107ms returns 0x00000000
T92D4 007:371.493 JLINK_ReadReg(R8)
T92D4 007:371.564 - 0.107ms returns 0x00000000
T92D4 007:371.643 JLINK_ReadReg(R9)
T92D4 007:371.715 - 0.112ms returns 0x00000000
T92D4 007:371.816 JLINK_ReadReg(R10)
T92D4 007:371.896 - 0.116ms returns 0x00000000
T92D4 007:371.974 JLINK_ReadReg(R11)
T92D4 007:372.043 - 0.104ms returns 0x00000000
T92D4 007:372.119 JLINK_ReadReg(R12)
T92D4 007:372.188 - 0.104ms returns 0x00000000
T92D4 007:372.396 JLINK_ReadReg(R13 (SP))
T92D4 007:372.488 - 0.129ms returns 0x20000400
T92D4 007:372.569 JLINK_ReadReg(R14)
T92D4 007:372.638 - 0.108ms returns 0xFFFFFFFF
T92D4 007:372.720 JLINK_ReadReg(R15 (PC))
T92D4 007:372.793 - 0.107ms returns 0x000008E4
T92D4 007:372.868 JLINK_ReadReg(XPSR)
T92D4 007:372.937 - 0.103ms returns 0x01000000
T92D4 007:373.013 JLINK_ReadReg(MSP)
T92D4 007:373.082 - 0.103ms returns 0x20000400
T92D4 007:373.158 JLINK_ReadReg(PSP)
T92D4 007:373.226 - 0.103ms returns 0x00000000
T92D4 007:373.301 JLINK_ReadReg(CFBP)
T92D4 007:373.370 - 0.103ms returns 0x00000000
T92D4 007:373.446 JLINK_ReadReg(FPSCR)
T92D4 007:378.434 - 5.077ms returns 0x00000000
T92D4 007:378.582 JLINK_ReadReg(FPS0)
T92D4 007:378.666 - 0.122ms returns 0x00000000
T92D4 007:378.767 JLINK_ReadReg(FPS1)
T92D4 007:378.855 - 0.124ms returns 0x00000000
T92D4 007:378.944 JLINK_ReadReg(FPS2)
T92D4 007:379.015 - 0.106ms returns 0x00000000
T92D4 007:379.096 JLINK_ReadReg(FPS3)
T92D4 007:379.167 - 0.106ms returns 0x00000000
T92D4 007:379.250 JLINK_ReadReg(FPS4)
T92D4 007:379.322 - 0.107ms returns 0x00000000
T92D4 007:379.403 JLINK_ReadReg(FPS5)
T92D4 007:379.474 - 0.106ms returns 0x00000000
T92D4 007:379.556 JLINK_ReadReg(FPS6)
T92D4 007:379.626 - 0.106ms returns 0x00000000
T92D4 007:379.717 JLINK_ReadReg(FPS7)
T92D4 007:379.810 - 0.129ms returns 0x00000000
T92D4 007:379.893 JLINK_ReadReg(FPS8)
T92D4 007:379.962 - 0.105ms returns 0x00000000
T92D4 007:380.059 JLINK_ReadReg(FPS9)
T92D4 007:380.131 - 0.106ms returns 0x00000000
T92D4 007:380.211 JLINK_ReadReg(FPS10)
T92D4 007:380.281 - 0.104ms returns 0x00000000
T92D4 007:380.361 JLINK_ReadReg(FPS11)
T92D4 007:380.431 - 0.104ms returns 0x00000000
T92D4 007:380.512 JLINK_ReadReg(FPS12)
T92D4 007:380.581 - 0.104ms returns 0x00000000
T92D4 007:380.662 JLINK_ReadReg(FPS13)
T92D4 007:380.735 - 0.111ms returns 0x00000000
T92D4 007:380.820 JLINK_ReadReg(FPS14)
T92D4 007:380.889 - 0.104ms returns 0x00000000
T92D4 007:380.970 JLINK_ReadReg(FPS15)
T92D4 007:381.039 - 0.103ms returns 0x00000000
T92D4 007:381.119 JLINK_ReadReg(FPS16)
T92D4 007:381.188 - 0.103ms returns 0x00000000
T92D4 007:381.288 JLINK_ReadReg(FPS17)
T92D4 007:381.407 - 0.156ms returns 0x00000000
T92D4 007:381.495 JLINK_ReadReg(FPS18)
T92D4 007:381.566 - 0.106ms returns 0x00000000
T92D4 007:381.647 JLINK_ReadReg(FPS19)
T92D4 007:381.721 - 0.109ms returns 0x00000000
T92D4 007:381.802 JLINK_ReadReg(FPS20)
T92D4 007:381.872 - 0.104ms returns 0x00000000
T92D4 007:381.952 JLINK_ReadReg(FPS21)
T92D4 007:382.021 - 0.104ms returns 0x00000000
T92D4 007:382.101 JLINK_ReadReg(FPS22)
T92D4 007:382.171 - 0.103ms returns 0x00000000
T92D4 007:382.251 JLINK_ReadReg(FPS23)
T92D4 007:382.320 - 0.103ms returns 0x00000000
T92D4 007:382.400 JLINK_ReadReg(FPS24)
T92D4 007:382.469 - 0.107ms returns 0x00000000
T92D4 007:382.581 JLINK_ReadReg(FPS25)
T92D4 007:382.700 - 0.180ms returns 0x00000000
T92D4 007:382.817 JLINK_ReadReg(FPS26)
T92D4 007:382.906 - 0.138ms returns 0x00000000
T92D4 007:383.005 JLINK_ReadReg(FPS27)
T92D4 007:383.076 - 0.106ms returns 0x00000000
T92D4 007:383.156 JLINK_ReadReg(FPS28)
T92D4 007:383.226 - 0.104ms returns 0x00000000
T92D4 007:383.306 JLINK_ReadReg(FPS29)
T92D4 007:383.400 - 0.131ms returns 0x00000000
T92D4 007:383.485 JLINK_ReadReg(FPS30)
T92D4 007:383.570 - 0.122ms returns 0x00000000
T92D4 007:383.655 JLINK_ReadReg(FPS31)
T92D4 007:383.739 - 0.127ms returns 0x00000000
T2A30 008:908.210   JLINK_ReadMemEx(0x000008E4, 0x0002 Bytes, ..., Flags = 0x02000000)
T2A30 008:908.434    -- Read from C cache (2 bytes @ 0x000008E4)
T2A30 008:908.558   Data:  06 4B
T2A30 008:908.676 - 0.510ms returns 0x02
T2A30 008:908.788   JLINK_SetBPEx(Addr = 0x00022EB4, Type = 0xFFFFFFF2)
T2A30 008:908.953 - 0.211ms returns 0x00000001
T2A30 008:909.060   JLINK_SetBPEx(Addr = 0x00022174, Type = 0xFFFFFFF2)
T2A30 008:909.178 - 0.182ms returns 0x00000002
T2A30 008:909.368   JLINK_SetBPEx(Addr = 0x00023564, Type = 0xFFFFFFF2)
T2A30 008:909.602 - 0.283ms returns 0x00000003
T2A30 008:909.723   JLINK_SetBPEx(Addr = 0x00021DA6, Type = 0xFFFFFFF2)
T2A30 008:909.914 - 0.248ms returns 0x00000004
T2A30 008:910.031   JLINK_SetBPEx(Addr = 0x00021D8C, Type = 0xFFFFFFF2)
T2A30 008:910.147 - 0.157ms returns 0x00000005
T2A30 008:910.243   JLINK_SetBPEx(Addr = 0x00022FD6, Type = 0xFFFFFFF2)
T2A30 008:910.356 - 0.154ms returns 0x00000006
T2A30 008:910.452   JLINK_SetBPEx(Addr = 0x00022FCC, Type = 0xFFFFFFF2)
T2A30 008:924.739   Looking for J-Link GUI Server exe at: C:\Keil_v5\ARM\Segger\JLinkGUIServer.exe
T2A30 008:926.072   Looking for J-Link GUI Server exe at: C:\Program Files (x86)\SEGGER\JLink\JLinkGUIServer.exe
T2A30 008:926.451   Forking J-Link GUI Server: C:\Program Files (x86)\SEGGER\JLink\JLinkGUIServer.exe
T2A30 008:941.321   J-Link GUI Server info: "J-Link GUI server V6.80a "
T2A30 011:512.651    -- BP[0] @ 0x00022EB4 converted into FlashBP
T2A30 011:512.968 - 2602.582ms returns 0x00000007
T2A30 011:513.156   JLINK_SetBPEx(Addr = 0x00022FC4, Type = 0xFFFFFFF2)
T2A30 011:527.683    -- BP[1] @ 0x00022174 converted into FlashBP
T2A30 011:527.905 - 14.793ms returns 0x00000008
T2A30 011:529.109 JLINK_Go()
T2A30 011:529.839    -- Read from C cache (2 bytes @ 0x000008E4)
T2A30 011:530.026   CPU_ReadMem(4 bytes @ 0xE000ED18)
T2A30 011:530.774   CPU_WriteMem(4 bytes @ 0xE000ED18)
T2A30 011:531.630   CPU_ReadMem(4 bytes @ 0xE000ED18)
T2A30 011:532.419   CPU_WriteMem(4 bytes @ 0xE000ED18)
T2A30 011:533.344    -- Read from C cache (4 bytes @ 0x00000900)
T2A30 011:533.596   -- Simulated
T2A30 011:533.774    -- Read from C cache (2 bytes @ 0x000008E6)
T2A30 011:533.964   -- Simulated
T2A30 011:534.242   CPU_ReadMem(64 bytes @ 0x00000300)
T2A30 011:535.342    -- Updating C cache (64 bytes @ 0x00000300)
T2A30 011:535.640    -- Read from C cache (2 bytes @ 0x0000031C)
T2A30 011:536.027    -- Read from C cache (2 bytes @ 0x0000031E)
T2A30 011:536.429   -- Simulated
T2A30 011:536.705    -- Read from C cache (2 bytes @ 0x00000320)
T2A30 011:536.963   CPU_ReadMem(64 bytes @ 0x10001000)
T2A30 011:538.080    -- Updating C cache (64 bytes @ 0x10001000)
T2A30 011:538.306    -- Read from C cache (4 bytes @ 0x10001018)
T2A30 011:538.497   -- Simulated
T2A30 011:538.674    -- Read from C cache (2 bytes @ 0x00000322)
T2A30 011:538.849   -- Simulated
T2A30 011:539.018    -- Read from C cache (2 bytes @ 0x00000324)
T2A30 011:539.185   -- Simulated
T2A30 011:539.355    -- Read from C cache (2 bytes @ 0x00000332)
T2A30 011:539.537    -- Read from C cache (4 bytes @ 0x10001014)
T2A30 011:539.704   -- Simulated
T2A30 011:539.868    -- Read from C cache (2 bytes @ 0x00000334)
T2A30 011:540.033   -- Simulated
T2A30 011:540.197    -- Read from C cache (2 bytes @ 0x00000336)
T2A30 011:540.378   -- Simulated
T2A30 011:540.707   CPU_ReadMem(64 bytes @ 0x00000380)
T2A30 011:541.749    -- Updating C cache (64 bytes @ 0x00000380)
T2A30 011:541.992    -- Read from C cache (2 bytes @ 0x00000394)
T2A30 011:542.151    -- Read from C cache (2 bytes @ 0x00000396)
T2A30 011:542.271   -- Simulated
T2A30 011:542.421   CPU_ReadMem(4 bytes @ 0xE000ED90)
T2A30 011:543.271   CPU_ReadMem(4 bytes @ 0xE000ED94)
T2A30 011:544.187    -- Start of preparing flash programming
T2A30 011:544.561    -- Calculating RAM usage
T2A30 011:545.529    -- RAM usage = 9900 Bytes
T2A30 011:545.685    -- Preserving CPU registers
T2A30 011:545.849    -- Preparing memory
T2A30 011:545.966    -- Preparing target
T2A30 011:546.078    -- Preserving target RAM temporarily used for programming
T2A30 011:599.894    -- Downloading RAMCode
T2A30 011:614.355    -- Preparing RAMCode
T2A30 011:618.818    -- Checking target RAM
T2A30 011:621.112    -- End of preparing flash programming
T2A30 011:621.272   CPU_ReadMem(4096 bytes @ 0x00022000)
T2A30 011:643.673    -- Updating flash cache (4096 bytes @ 0x00022000)
T2A30 011:643.882    -- Programming range 0x00022000 - 0x00022FFF (  1 Sector, 4 KB)
T2A30 011:854.147    -- Start of restoring
T2A30 011:854.368    -- Restoring RAMCode
T2A30 011:860.987    -- Restoring target memory
T2A30 011:917.653    -- Restore target
T2A30 011:917.926    -- Restore memory
T2A30 011:918.105    -- Restoring CPU registers
T2A30 011:918.342    -- End of restoring
T2A30 011:951.878   CPU_WriteMem(4 bytes @ 0xE0002000)
T2A30 011:952.853   CPU_WriteMem(4 bytes @ 0xE0002000)
T2A30 011:953.686   CPU_WriteMem(4 bytes @ 0xE0002000)
T2A30 011:954.458   CPU_WriteMem(4 bytes @ 0xE0002000)
T2A30 011:955.252   CPU_WriteMem(4 bytes @ 0xE0002000)
T2A30 011:956.101   CPU_WriteMem(4 bytes @ 0xE0002000)
T2A30 011:956.857   CPU_ReadMem(4 bytes @ 0xE0001000)
T2A30 011:957.757   CPU_WriteMem(4 bytes @ 0xE0002008)
T2A30 011:958.010   CPU_WriteMem(4 bytes @ 0xE000200C)
T2A30 011:958.192   CPU_WriteMem(4 bytes @ 0xE0002010)
T2A30 011:958.428   CPU_WriteMem(4 bytes @ 0xE0002014)
T2A30 011:958.629   CPU_WriteMem(4 bytes @ 0xE0002018)
T2A30 011:958.811   CPU_WriteMem(4 bytes @ 0xE000201C)
T2A30 011:964.039 - 435.075ms
T2A30 012:065.183 JLINK_IsHalted()
T2A30 012:068.829 - 3.783ms returns TRUE
T2A30 012:069.114 JLINK_Halt()
T2A30 012:069.247 - 0.181ms returns 0x00
T2A30 012:069.347 JLINK_IsHalted()
T2A30 012:069.428 - 0.119ms returns TRUE
T2A30 012:069.520 JLINK_IsHalted()
T2A30 012:069.597 - 0.115ms returns TRUE
T2A30 012:069.686 JLINK_IsHalted()
T2A30 012:069.762 - 0.114ms returns TRUE
T2A30 012:069.865 JLINK_ReadReg(R15 (PC))
T2A30 012:069.956 - 0.132ms returns 0x00022EB4
T2A30 012:070.196 JLINK_ReadReg(XPSR)
T2A30 012:070.382 - 0.263ms returns 0x61000000
T2A30 012:070.585 JLINK_ClrBPEx(BPHandle = 0x00000001)
T2A30 012:070.742 - 0.235ms returns 0x00
T2A30 012:070.946 JLINK_ClrBPEx(BPHandle = 0x00000002)
T2A30 012:071.103 - 0.234ms returns 0x00
T2A30 012:071.473 JLINK_ClrBPEx(BPHandle = 0x00000003)
T2A30 012:071.635 - 0.208ms returns 0x00
T2A30 012:071.746 JLINK_ClrBPEx(BPHandle = 0x00000004)
T2A30 012:071.831 - 0.125ms returns 0x00
T2A30 012:071.928 JLINK_ClrBPEx(BPHandle = 0x00000005)
T2A30 012:072.010 - 0.189ms returns 0x00
T2A30 012:072.182 JLINK_ClrBPEx(BPHandle = 0x00000006)
T2A30 012:072.265 - 0.122ms returns 0x00
T2A30 012:072.358 JLINK_ClrBPEx(BPHandle = 0x00000007)
T2A30 012:072.437 - 0.147ms returns 0x00
T2A30 012:072.696 JLINK_ClrBPEx(BPHandle = 0x00000008)
T2A30 012:072.807 - 0.152ms returns 0x00
T2A30 012:072.915 JLINK_ReadMemU32(0xE000ED30, 0x0001 Items, ...)
T2A30 012:073.057   CPU_ReadMem(4 bytes @ 0xE000ED30)
T2A30 012:073.892   Data:  02 00 00 00
T2A30 012:074.128 - 1.272ms returns 1
T2A30 012:074.285 JLINK_ReadMemU32(0xE0001028, 0x0001 Items, ...)
T2A30 012:074.440   CPU_ReadMem(4 bytes @ 0xE0001028)
T2A30 012:075.270   Data:  00 00 00 00
T2A30 012:075.484   Debug reg: DWT_FUNC[0]
T2A30 012:075.650 - 1.420ms returns 1
T2A30 012:075.789 JLINK_ReadMemU32(0xE0001038, 0x0001 Items, ...)
T2A30 012:075.940   CPU_ReadMem(4 bytes @ 0xE0001038)
T2A30 012:076.707   Data:  00 02 00 00
T2A30 012:076.927   Debug reg: DWT_FUNC[1]
T2A30 012:077.151 - 1.429ms returns 1
T2A30 012:077.301 JLINK_ReadMemU32(0xE0001048, 0x0001 Items, ...)
T2A30 012:077.446   CPU_ReadMem(4 bytes @ 0xE0001048)
T2A30 012:078.182   Data:  00 00 00 00
T2A30 012:078.405   Debug reg: DWT_FUNC[2]
T2A30 012:078.577 - 1.337ms returns 1
T2A30 012:078.721 JLINK_ReadMemU32(0xE0001058, 0x0001 Items, ...)
T2A30 012:078.871   CPU_ReadMem(4 bytes @ 0xE0001058)
T2A30 012:079.598   Data:  00 00 00 00
T2A30 012:079.790   Debug reg: DWT_FUNC[3]
T2A30 012:079.963 - 1.303ms returns 1
T2A30 012:080.423 JLINK_ReadReg(R0)
T2A30 012:080.578 - 0.216ms returns 0x00022EB5
T2A30 012:080.715 JLINK_ReadReg(R1)
T2A30 012:080.839 - 0.187ms returns 0x20004338
T2A30 012:080.977 JLINK_ReadReg(R2)
T2A30 012:081.111 - 0.198ms returns 0x00000000
T2A30 012:081.246 JLINK_ReadReg(R3)
T2A30 012:081.368 - 0.180ms returns 0x00020F69
T2A30 012:081.498 JLINK_ReadReg(R4)
T2A30 012:081.620 - 0.181ms returns 0x00025CF0
T2A30 012:081.749 JLINK_ReadReg(R5)
T2A30 012:081.873 - 0.187ms returns 0x00025CF0
T2A30 012:082.012 JLINK_ReadReg(R6)
T2A30 012:082.151 - 0.205ms returns 0x00000000
T2A30 012:082.332 JLINK_ReadReg(R7)
T2A30 012:108.063 - 25.802ms returns 0x00000000
T2A30 012:108.214 JLINK_ReadReg(R8)
T2A30 012:108.304 - 0.132ms returns 0x00000000
T2A30 012:108.400 JLINK_ReadReg(R9)
T2A30 012:108.479 - 0.118ms returns 0x00000000
T2A30 012:108.570 JLINK_ReadReg(R10)
T2A30 012:108.648 - 0.129ms returns 0x00000000
T2A30 012:108.768 JLINK_ReadReg(R11)
T2A30 012:108.855 - 0.127ms returns 0x00000000
T2A30 012:108.948 JLINK_ReadReg(R12)
T2A30 012:109.029 - 0.122ms returns 0x00000006
T2A30 012:109.125 JLINK_ReadReg(R13 (SP))
T2A30 012:109.209 - 0.124ms returns 0x20004338
T2A30 012:109.305 JLINK_ReadReg(R14)
T2A30 012:109.402 - 0.142ms returns 0x0001F855
T2A30 012:109.521 JLINK_ReadReg(R15 (PC))
T2A30 012:109.633 - 0.167ms returns 0x00022EB4
T2A30 012:109.766 JLINK_ReadReg(XPSR)
T2A30 012:109.885 - 0.160ms returns 0x61000000
T2A30 012:109.982 JLINK_ReadReg(MSP)
T2A30 012:110.064 - 0.124ms returns 0x20004338
T2A30 012:110.161 JLINK_ReadReg(PSP)
T2A30 012:110.249 - 0.127ms returns 0x00000000
T2A30 012:110.340 JLINK_ReadReg(CFBP)
T2A30 012:110.419 - 0.118ms returns 0x00000000
T2A30 012:110.509 JLINK_ReadReg(FPSCR)
T2A30 012:115.617 - 5.239ms returns 0x00000000
T2A30 012:115.830 JLINK_ReadReg(FPS0)
T2A30 012:115.926 - 0.137ms returns 0x00000000
T2A30 012:116.022 JLINK_ReadReg(FPS1)
T2A30 012:116.104 - 0.122ms returns 0x00000000
T2A30 012:116.197 JLINK_ReadReg(FPS2)
T2A30 012:116.276 - 0.119ms returns 0x00000000
T2A30 012:116.368 JLINK_ReadReg(FPS3)
T2A30 012:116.446 - 0.118ms returns 0x00000000
T2A30 012:116.539 JLINK_ReadReg(FPS4)
T2A30 012:116.618 - 0.130ms returns 0x00000000
T2A30 012:116.724 JLINK_ReadReg(FPS5)
T2A30 012:116.804 - 0.119ms returns 0x00000000
T2A30 012:116.895 JLINK_ReadReg(FPS6)
T2A30 012:116.975 - 0.118ms returns 0x00000000
T2A30 012:117.067 JLINK_ReadReg(FPS7)
T2A30 012:117.148 - 0.120ms returns 0x00000000
T2A30 012:117.239 JLINK_ReadReg(FPS8)
T2A30 012:117.318 - 0.117ms returns 0x00000000
T2A30 012:117.409 JLINK_ReadReg(FPS9)
T2A30 012:117.488 - 0.118ms returns 0x00000000
T2A30 012:117.579 JLINK_ReadReg(FPS10)
T2A30 012:117.676 - 0.155ms returns 0x00000000
T2A30 012:117.801 JLINK_ReadReg(FPS11)
T2A30 012:117.886 - 0.124ms returns 0x00000000
T2A30 012:117.979 JLINK_ReadReg(FPS12)
T2A30 012:118.058 - 0.118ms returns 0x00000000
T2A30 012:118.150 JLINK_ReadReg(FPS13)
T2A30 012:118.229 - 0.118ms returns 0x00000000
T2A30 012:118.320 JLINK_ReadReg(FPS14)
T2A30 012:118.400 - 0.119ms returns 0x00000000
T2A30 012:118.491 JLINK_ReadReg(FPS15)
T2A30 012:118.570 - 0.118ms returns 0x00000000
T2A30 012:118.678 JLINK_ReadReg(FPS16)
T2A30 012:118.771 - 0.133ms returns 0x00000000
T2A30 012:118.863 JLINK_ReadReg(FPS17)
T2A30 012:118.946 - 0.173ms returns 0x00000000
T2A30 012:119.141 JLINK_ReadReg(FPS18)
T2A30 012:119.269 - 0.171ms returns 0x00000000
T2A30 012:119.384 JLINK_ReadReg(FPS19)
T2A30 012:119.509 - 0.168ms returns 0x00000000
T2A30 012:119.625 JLINK_ReadReg(FPS20)
T2A30 012:119.778 - 0.207ms returns 0x00000000
T2A30 012:119.915 JLINK_ReadReg(FPS21)
T2A30 012:120.041 - 0.169ms returns 0x00000000
T2A30 012:120.155 JLINK_ReadReg(FPS22)
T2A30 012:120.290 - 0.196ms returns 0x00000000
T2A30 012:120.409 JLINK_ReadReg(FPS23)
T2A30 012:120.492 - 0.123ms returns 0x00000000
T2A30 012:120.590 JLINK_ReadReg(FPS24)
T2A30 012:120.730 - 0.192ms returns 0x00000000
T2A30 012:120.861 JLINK_ReadReg(FPS25)
T2A30 012:120.965 - 0.146ms returns 0x00000000
T2A30 012:121.061 JLINK_ReadReg(FPS26)
T2A30 012:121.141 - 0.119ms returns 0x00000000
T2A30 012:121.245 JLINK_ReadReg(FPS27)
T2A30 012:121.384 - 0.192ms returns 0x00000000
T2A30 012:121.501 JLINK_ReadReg(FPS28)
T2A30 012:121.653 - 0.215ms returns 0x00000000
T2A30 012:121.797 JLINK_ReadReg(FPS29)
T2A30 012:121.919 - 0.183ms returns 0x00000000
T2A30 012:122.058 JLINK_ReadReg(FPS30)
T2A30 012:122.185 - 0.190ms returns 0x00000000
T2A30 012:122.327 JLINK_ReadReg(FPS31)
T2A30 012:122.445 - 0.176ms returns 0x00000000
T92D4 012:177.898 JLINK_ReadMemU32(0xE0001004, 0x0001 Items, ...)
T92D4 012:178.188   CPU_ReadMem(4 bytes @ 0xE0001004)
T92D4 012:179.097   Data:  B6 8C E9 00
T92D4 012:179.326   Debug reg: DWT_CYCCNT
T92D4 012:179.490 - 1.635ms returns 1
T2A30 013:677.981   JLINK_ReadMemEx(0x00022EB4, 0x0002 Bytes, ..., Flags = 0x02000000)
T2A30 013:678.105    -- Merging zombie BP[0]: 0xB08A @ 0x00022EB4
T2A30 013:678.175    -- Merging zombie BP[0]: 0xB08A @ 0x00022EB4
T2A30 013:678.242   Data:  8A B0
T2A30 013:678.308 - 0.352ms returns 0x02
T2A30 013:678.371   JLINK_SetBPEx(Addr = 0x00022174, Type = 0xFFFFFFF2)
T2A30 013:678.448 - 0.102ms returns 0x00000009
T2A30 013:678.506   JLINK_SetBPEx(Addr = 0x00023564, Type = 0xFFFFFFF2)
T2A30 013:678.575 - 0.093ms returns 0x0000000A
T2A30 013:678.631   JLINK_SetBPEx(Addr = 0x00021DA6, Type = 0xFFFFFFF2)
T2A30 013:678.699 - 0.092ms returns 0x0000000B
T2A30 013:678.756   JLINK_SetBPEx(Addr = 0x00021D8C, Type = 0xFFFFFFF2)
T2A30 013:678.827 - 0.095ms returns 0x0000000C
T2A30 013:678.883   JLINK_SetBPEx(Addr = 0x00022FD6, Type = 0xFFFFFFF2)
T2A30 013:678.963 - 0.105ms returns 0x0000000D
T2A30 013:679.021   JLINK_SetBPEx(Addr = 0x00022FCC, Type = 0xFFFFFFF2)
T2A30 013:679.086 - 0.088ms returns 0x0000000E
T2A30 013:679.140   JLINK_SetBPEx(Addr = 0x00022FC4, Type = 0xFFFFFFF2)
T2A30 013:679.208 - 0.090ms returns 0x0000000F
T2A30 013:679.267 JLINK_Go()
T2A30 013:679.861    -- Merging zombie BP[0]: 0xB08A @ 0x00022EB4
T2A30 013:680.021    -- Merging zombie BP[0]: 0xB08A @ 0x00022EB4
T2A30 013:680.145   -- Simulated
T2A30 013:680.271    -- Read from flash cache (2 bytes @ 0x00022EB6)
T2A30 013:680.388    -- Read from flash cache (2 bytes @ 0x00022EB8)
T2A30 013:680.503   -- Simulated
T2A30 013:680.633   CPU_ReadMem(64 bytes @ 0x00021380)
T2A30 013:681.691    -- Updating C cache (64 bytes @ 0x00021380)
T2A30 013:681.878    -- Read from C cache (2 bytes @ 0x000213B4)
T2A30 013:682.070   CPU_WriteMem(16 bytes @ 0x20004300)
T2A30 013:682.835   -- Simulated
T2A30 013:683.045    -- Read from C cache (2 bytes @ 0x000213B6)
T2A30 013:683.169    -- Read from C cache (2 bytes @ 0x000213B8)
T2A30 013:683.285   -- Simulated
T2A30 013:683.408   CPU_ReadMem(64 bytes @ 0x00024580)
T2A30 013:684.424    -- Updating C cache (64 bytes @ 0x00024580)
T2A30 013:684.597    -- Read from C cache (2 bytes @ 0x000245B4)
T2A30 013:684.739   CPU_WriteMem(16 bytes @ 0x200042F0)
T2A30 013:685.535   -- Simulated
T2A30 013:685.716    -- Read from C cache (2 bytes @ 0x000245B6)
T2A30 013:685.843   -- Simulated
T2A30 013:685.976    -- Read from C cache (2 bytes @ 0x000245B8)
T2A30 013:686.097   -- Simulated
T2A30 013:686.218    -- Read from C cache (2 bytes @ 0x000245BA)
T2A30 013:686.339    -- Read from C cache (2 bytes @ 0x000245BC)
T2A30 013:686.459   -- Simulated
T2A30 013:686.578    -- Read from C cache (2 bytes @ 0x000245BE)
T2A30 013:686.696   -- Simulated
T2A30 013:686.818   CPU_ReadMem(64 bytes @ 0x000245C0)
T2A30 013:687.826    -- Updating C cache (64 bytes @ 0x000245C0)
T2A30 013:688.017    -- Read from C cache (2 bytes @ 0x000245C0)
T2A30 013:688.163    -- Read from C cache (2 bytes @ 0x000245C2)
T2A30 013:688.286   -- Not simulated
T2A30 013:688.432   CPU_ReadMem(4 bytes @ 0xE000ED90)
T2A30 013:689.182   CPU_ReadMem(4 bytes @ 0xE000ED94)
T2A30 013:689.965    -- Start of preparing flash programming
T2A30 013:690.145    -- Calculating RAM usage
T2A30 013:690.286    -- RAM usage = 9900 Bytes
T2A30 013:690.407    -- Preserving CPU registers
T2A30 013:690.576    -- Preparing memory
T2A30 013:690.699    -- Preparing target
T2A30 013:690.816    -- Preserving target RAM temporarily used for programming
T2A30 013:744.796    -- Downloading RAMCode
T2A30 013:759.400    -- Preparing RAMCode
T2A30 013:764.827    -- Not first flash download, checking target RAM skipped
T2A30 013:765.010    -- End of preparing flash programming
T2A30 013:765.164    -- Read from flash cache (4096 bytes @ 0x00022000)
T2A30 013:765.294    -- Programming range 0x00022000 - 0x00022FFF (  1 Sector, 4 KB)
T2A30 013:991.244    -- Start of restoring
T2A30 013:991.452    -- Restoring RAMCode
T2A30 014:012.643    -- Restoring target memory
T2A30 014:069.307    -- Restore target
T2A30 014:069.540    -- Restore memory
T2A30 014:069.664    -- Restoring CPU registers
T2A30 014:069.837    -- End of restoring
T2A30 014:099.747   CPU_WriteMem(4 bytes @ 0xE0002000)
T2A30 014:100.721   CPU_WriteMem(4 bytes @ 0xE0002000)
T2A30 014:101.490   CPU_WriteMem(4 bytes @ 0xE0002000)
T2A30 014:102.214   CPU_WriteMem(4 bytes @ 0xE0002000)
T2A30 014:102.891   CPU_WriteMem(4 bytes @ 0xE0002000)
T2A30 014:103.665   CPU_WriteMem(4 bytes @ 0xE0002000)
T2A30 014:104.515   CPU_ReadMem(4 bytes @ 0xE0001000)
T2A30 014:108.413 - 429.287ms
T2A30 014:209.382 JLINK_IsHalted()
T2A30 014:210.160 - 0.893ms returns FALSE
T2A30 014:311.063 JLINK_IsHalted()
T2A30 014:311.678 - 0.685ms returns FALSE
T2A30 014:413.147 JLINK_IsHalted()
T2A30 014:413.961 - 0.909ms returns FALSE
T2A30 014:514.687 JLINK_IsHalted()
T2A30 014:518.597 - 4.036ms returns TRUE
T2A30 014:518.803 JLINK_Halt()
T2A30 014:518.884 - 0.119ms returns 0x00
T2A30 014:518.970 JLINK_IsHalted()
T2A30 014:519.047 - 0.116ms returns TRUE
T2A30 014:519.132 JLINK_IsHalted()
T2A30 014:519.208 - 0.114ms returns TRUE
T2A30 014:519.292 JLINK_IsHalted()
T2A30 014:519.367 - 0.113ms returns TRUE
T2A30 014:519.464 JLINK_ReadReg(R15 (PC))
T2A30 014:519.563 - 0.141ms returns 0x00022FC4
T2A30 014:519.651 JLINK_ReadReg(XPSR)
T2A30 014:519.730 - 0.118ms returns 0x01000000
T2A30 014:519.840 JLINK_ClrBPEx(BPHandle = 0x00000009)
T2A30 014:519.921 - 0.119ms returns 0x00
T2A30 014:520.015 JLINK_ClrBPEx(BPHandle = 0x0000000A)
T2A30 014:520.094 - 0.118ms returns 0x00
T2A30 014:520.187 JLINK_ClrBPEx(BPHandle = 0x0000000B)
T2A30 014:520.266 - 0.116ms returns 0x00
T2A30 014:520.358 JLINK_ClrBPEx(BPHandle = 0x0000000C)
T2A30 014:520.436 - 0.179ms returns 0x00
T2A30 014:520.602 JLINK_ClrBPEx(BPHandle = 0x0000000D)
T2A30 014:520.684 - 0.121ms returns 0x00
T2A30 014:520.777 JLINK_ClrBPEx(BPHandle = 0x0000000E)
T2A30 014:520.855 - 0.116ms returns 0x00
T2A30 014:520.947 JLINK_ClrBPEx(BPHandle = 0x0000000F)
T2A30 014:521.025 - 0.116ms returns 0x00
T2A30 014:521.128 JLINK_ReadMemU32(0xE000ED30, 0x0001 Items, ...)
T2A30 014:521.225   CPU_ReadMem(4 bytes @ 0xE000ED30)
T2A30 014:521.988   Data:  02 00 00 00
T2A30 014:522.161 - 1.074ms returns 1
T2A30 014:522.273 JLINK_ReadMemU32(0xE0001028, 0x0001 Items, ...)
T2A30 014:522.383   CPU_ReadMem(4 bytes @ 0xE0001028)
T2A30 014:523.081   Data:  00 00 00 00
T2A30 014:523.264   Debug reg: DWT_FUNC[0]
T2A30 014:523.381 - 1.156ms returns 1
T2A30 014:523.503 JLINK_ReadMemU32(0xE0001038, 0x0001 Items, ...)
T2A30 014:523.612   CPU_ReadMem(4 bytes @ 0xE0001038)
T2A30 014:524.388   Data:  00 02 00 00
T2A30 014:524.673   Debug reg: DWT_FUNC[1]
T2A30 014:524.791 - 1.327ms returns 1
T2A30 014:524.899 JLINK_ReadMemU32(0xE0001048, 0x0001 Items, ...)
T2A30 014:525.004   CPU_ReadMem(4 bytes @ 0xE0001048)
T2A30 014:525.749   Data:  00 00 00 00
T2A30 014:525.949   Debug reg: DWT_FUNC[2]
T2A30 014:526.068 - 1.210ms returns 1
T2A30 014:526.177 JLINK_ReadMemU32(0xE0001058, 0x0001 Items, ...)
T2A30 014:526.286   CPU_ReadMem(4 bytes @ 0xE0001058)
T2A30 014:527.015   Data:  00 00 00 00
T2A30 014:527.185   Debug reg: DWT_FUNC[3]
T2A30 014:527.302 - 1.165ms returns 1
T2A30 014:527.620 JLINK_ReadReg(R0)
T2A30 014:527.758 - 0.182ms returns 0x00000001
T2A30 014:527.857 JLINK_ReadReg(R1)
T2A30 014:527.939 - 0.122ms returns 0x20002CD4
T2A30 014:528.030 JLINK_ReadReg(R2)
T2A30 014:528.109 - 0.118ms returns 0x00000000
T2A30 014:528.200 JLINK_ReadReg(R3)
T2A30 014:528.279 - 0.118ms returns 0x00000001
T2A30 014:528.370 JLINK_ReadReg(R4)
T2A30 014:528.467 - 0.137ms returns 0x00000000
T2A30 014:528.559 JLINK_ReadReg(R5)
T2A30 014:528.637 - 0.124ms returns 0x00025CF0
T2A30 014:528.737 JLINK_ReadReg(R6)
T2A30 014:528.817 - 0.131ms returns 0x00000000
T2A30 014:528.935 JLINK_ReadReg(R7)
T2A30 014:529.017 - 0.121ms returns 0x00000000
T2A30 014:529.109 JLINK_ReadReg(R8)
T2A30 014:529.188 - 0.118ms returns 0x00000000
T2A30 014:529.278 JLINK_ReadReg(R9)
T2A30 014:529.378 - 0.151ms returns 0x00000000
T2A30 014:529.485 JLINK_ReadReg(R10)
T2A30 014:529.565 - 0.119ms returns 0x00000000
T2A30 014:529.655 JLINK_ReadReg(R11)
T2A30 014:529.734 - 0.118ms returns 0x00000000
T2A30 014:529.824 JLINK_ReadReg(R12)
T2A30 014:529.902 - 0.125ms returns 0x00000001
T2A30 014:530.002 JLINK_ReadReg(R13 (SP))
T2A30 014:530.083 - 0.136ms returns 0x20004310
T2A30 014:530.203 JLINK_ReadReg(R14)
T2A30 014:530.285 - 0.121ms returns 0x00021471
T2A30 014:530.377 JLINK_ReadReg(R15 (PC))
T2A30 014:530.469 - 0.132ms returns 0x00022FC4
T2A30 014:530.561 JLINK_ReadReg(XPSR)
T2A30 014:530.640 - 0.118ms returns 0x01000000
T2A30 014:530.730 JLINK_ReadReg(MSP)
T2A30 014:530.809 - 0.117ms returns 0x20004310
T2A30 014:530.898 JLINK_ReadReg(PSP)
T2A30 014:530.976 - 0.116ms returns 0x00000000
T2A30 014:531.066 JLINK_ReadReg(CFBP)
T2A30 014:531.144 - 0.117ms returns 0x00000000
T2A30 014:531.235 JLINK_ReadReg(FPSCR)
T2A30 014:536.430 - 5.313ms returns 0x00000000
T2A30 014:536.627 JLINK_ReadReg(FPS0)
T2A30 014:536.726 - 0.141ms returns 0x00000000
T2A30 014:536.829 JLINK_ReadReg(FPS1)
T2A30 014:536.912 - 0.125ms returns 0x00000000
T2A30 014:537.008 JLINK_ReadReg(FPS2)
T2A30 014:537.090 - 0.123ms returns 0x00000000
T2A30 014:537.184 JLINK_ReadReg(FPS3)
T2A30 014:537.267 - 0.123ms returns 0x00000000
T2A30 014:537.361 JLINK_ReadReg(FPS4)
T2A30 014:537.470 - 0.154ms returns 0x00000000
T2A30 014:537.571 JLINK_ReadReg(FPS5)
T2A30 014:537.650 - 0.118ms returns 0x00000000
T2A30 014:537.741 JLINK_ReadReg(FPS6)
T2A30 014:537.821 - 0.119ms returns 0x00000000
T2A30 014:537.912 JLINK_ReadReg(FPS7)
T2A30 014:537.991 - 0.117ms returns 0x00000000
T2A30 014:538.086 JLINK_ReadReg(FPS8)
T2A30 014:538.165 - 0.118ms returns 0x00000000
T2A30 014:538.255 JLINK_ReadReg(FPS9)
T2A30 014:538.334 - 0.117ms returns 0x00000000
T2A30 014:538.431 JLINK_ReadReg(FPS10)
T2A30 014:538.512 - 0.120ms returns 0x00000000
T2A30 014:538.602 JLINK_ReadReg(FPS11)
T2A30 014:538.680 - 0.116ms returns 0x00000000
T2A30 014:538.770 JLINK_ReadReg(FPS12)
T2A30 014:538.847 - 0.116ms returns 0x00000000
T2A30 014:538.938 JLINK_ReadReg(FPS13)
T2A30 014:539.016 - 0.116ms returns 0x00000000
T2A30 014:539.106 JLINK_ReadReg(FPS14)
T2A30 014:539.184 - 0.117ms returns 0x00000000
T2A30 014:539.280 JLINK_ReadReg(FPS15)
T2A30 014:539.386 - 0.159ms returns 0x00000000
T2A30 014:539.493 JLINK_ReadReg(FPS16)
T2A30 014:539.573 - 0.119ms returns 0x00000000
T2A30 014:539.665 JLINK_ReadReg(FPS17)
T2A30 014:539.744 - 0.117ms returns 0x00000000
T2A30 014:539.835 JLINK_ReadReg(FPS18)
T2A30 014:539.913 - 0.117ms returns 0x00000000
T2A30 014:540.004 JLINK_ReadReg(FPS19)
T2A30 014:540.082 - 0.117ms returns 0x00000000
T2A30 014:540.172 JLINK_ReadReg(FPS20)
T2A30 014:540.251 - 0.117ms returns 0x00000000
T2A30 014:540.342 JLINK_ReadReg(FPS21)
T2A30 014:540.443 - 0.144ms returns 0x00000000
T2A30 014:540.540 JLINK_ReadReg(FPS22)
T2A30 014:540.618 - 0.118ms returns 0x00000000
T2A30 014:540.710 JLINK_ReadReg(FPS23)
T2A30 014:540.789 - 0.118ms returns 0x00000000
T2A30 014:540.879 JLINK_ReadReg(FPS24)
T2A30 014:540.957 - 0.117ms returns 0x00000000
T2A30 014:541.048 JLINK_ReadReg(FPS25)
T2A30 014:541.126 - 0.117ms returns 0x00000000
T2A30 014:541.216 JLINK_ReadReg(FPS26)
T2A30 014:541.295 - 0.117ms returns 0x00000000
T2A30 014:541.390 JLINK_ReadReg(FPS27)
T2A30 014:541.470 - 0.118ms returns 0x00000000
T2A30 014:541.560 JLINK_ReadReg(FPS28)
T2A30 014:541.645 - 0.137ms returns 0x00000000
T2A30 014:541.755 JLINK_ReadReg(FPS29)
T2A30 014:541.835 - 0.119ms returns 0x00000000
T2A30 014:541.925 JLINK_ReadReg(FPS30)
T2A30 014:542.004 - 0.117ms returns 0x00000000
T2A30 014:542.094 JLINK_ReadReg(FPS31)
T2A30 014:542.173 - 0.118ms returns 0x00000000
T92D4 014:544.586 JLINK_ReadMemU32(0xE0001004, 0x0001 Items, ...)
T92D4 014:544.752   CPU_ReadMem(4 bytes @ 0xE0001004)
T92D4 014:545.491   Data:  C5 52 21 03
T92D4 014:545.663   Debug reg: DWT_CYCCNT
T92D4 014:545.780 - 1.234ms returns 1
T2A30 014:949.170   JLINK_ReadMemEx(0x00022FC4, 0x0002 Bytes, ..., Flags = 0x02000000)
T2A30 014:949.404    -- Read from flash cache (2 bytes @ 0x00022FC4)
T2A30 014:949.555   Data:  00 F0
T2A30 014:949.669 - 0.542ms returns 0x02
T2A30 014:949.778 JLINK_Step()
T2A30 014:949.877    -- Read from flash cache (2 bytes @ 0x00022FC4)
T2A30 014:949.998    -- Read from flash cache (2 bytes @ 0x00022FC6)
T2A30 014:950.117   -- Simulated
T2A30 014:950.228 - 0.488ms returns 0x00
T2A30 014:950.324 JLINK_ReadReg(R15 (PC))
T2A30 014:950.418 - 0.153ms returns 0x000234E0
T2A30 014:950.584 JLINK_ReadReg(XPSR)
T2A30 014:950.690 - 0.149ms returns 0x01000000
T2A30 014:950.803   JLINK_SetBPEx(Addr = 0x00022174, Type = 0xFFFFFFF2)
T2A30 014:950.924 - 0.162ms returns 0x00000010
T2A30 014:951.021   JLINK_SetBPEx(Addr = 0x00023564, Type = 0xFFFFFFF2)
T2A30 014:951.137 - 0.157ms returns 0x00000011
T2A30 014:951.234   JLINK_SetBPEx(Addr = 0x00021DA6, Type = 0xFFFFFFF2)
T2A30 014:951.353 - 0.159ms returns 0x00000012
T2A30 014:951.461   JLINK_SetBPEx(Addr = 0x00021D8C, Type = 0xFFFFFFF2)
T2A30 014:951.590 - 0.171ms returns 0x00000013
T2A30 014:951.696   JLINK_SetBPEx(Addr = 0x00022FD6, Type = 0xFFFFFFF2)
T2A30 014:951.822 - 0.167ms returns 0x00000014
T2A30 014:951.924   JLINK_SetBPEx(Addr = 0x00022FCC, Type = 0xFFFFFFF2)
T2A30 014:952.040 - 0.157ms returns 0x00000015
T2A30 014:952.141   JLINK_SetBPEx(Addr = 0x00022FC4, Type = 0xFFFFFFF2)
T2A30 014:952.262 - 0.161ms returns 0x00000016
T2A30 014:952.579 JLINK_Go()
T2A30 014:952.821   CPU_WriteMem(4 bytes @ 0xE0002000)
T2A30 014:953.633   CPU_WriteMem(4 bytes @ 0xE0002000)
T2A30 014:954.463   CPU_WriteMem(4 bytes @ 0xE0002000)
T2A30 014:955.234   CPU_WriteMem(4 bytes @ 0xE0002000)
T2A30 014:955.985   CPU_WriteMem(4 bytes @ 0xE0002000)
T2A30 014:956.789   CPU_WriteMem(4 bytes @ 0xE0002000)
T2A30 014:957.563   CPU_ReadMem(4 bytes @ 0xE0001000)
T2A30 014:958.411   CPU_WriteMem(4 bytes @ 0xE0001004)
T2A30 014:960.763 - 8.293ms
T2A30 015:061.683 JLINK_IsHalted()
T2A30 015:065.582 - 4.026ms returns TRUE
T2A30 015:065.791 JLINK_Halt()
T2A30 015:065.875 - 0.124ms returns 0x00
T2A30 015:065.963 JLINK_IsHalted()
T2A30 015:066.040 - 0.115ms returns TRUE
T2A30 015:066.125 JLINK_IsHalted()
T2A30 015:066.201 - 0.114ms returns TRUE
T2A30 015:066.285 JLINK_IsHalted()
T2A30 015:066.369 - 0.125ms returns TRUE
T2A30 015:066.471 JLINK_ReadReg(R15 (PC))
T2A30 015:066.562 - 0.133ms returns 0x00022FCC
T2A30 015:066.651 JLINK_ReadReg(XPSR)
T2A30 015:066.730 - 0.119ms returns 0x61000000
T2A30 015:066.839 JLINK_ClrBPEx(BPHandle = 0x00000010)
T2A30 015:066.920 - 0.120ms returns 0x00
T2A30 015:067.014 JLINK_ClrBPEx(BPHandle = 0x00000011)
T2A30 015:067.093 - 0.118ms returns 0x00
T2A30 015:067.187 JLINK_ClrBPEx(BPHandle = 0x00000012)
T2A30 015:067.265 - 0.117ms returns 0x00
T2A30 015:067.382 JLINK_ClrBPEx(BPHandle = 0x00000013)
T2A30 015:067.525 - 0.185ms returns 0x00
T2A30 015:067.627 JLINK_ClrBPEx(BPHandle = 0x00000014)
T2A30 015:067.707 - 0.118ms returns 0x00
T2A30 015:067.799 JLINK_ClrBPEx(BPHandle = 0x00000015)
T2A30 015:067.877 - 0.116ms returns 0x00
T2A30 015:067.970 JLINK_ClrBPEx(BPHandle = 0x00000016)
T2A30 015:068.048 - 0.116ms returns 0x00
T2A30 015:068.150 JLINK_ReadMemU32(0xE000ED30, 0x0001 Items, ...)
T2A30 015:068.247   CPU_ReadMem(4 bytes @ 0xE000ED30)
T2A30 015:068.968   Data:  02 00 00 00
T2A30 015:069.138 - 1.029ms returns 1
T2A30 015:069.239 JLINK_ReadMemU32(0xE0001028, 0x0001 Items, ...)
T2A30 015:069.345   CPU_ReadMem(4 bytes @ 0xE0001028)
T2A30 015:070.125   Data:  00 00 00 00
T2A30 015:070.300   Debug reg: DWT_FUNC[0]
T2A30 015:070.428 - 1.230ms returns 1
T2A30 015:070.529 JLINK_ReadMemU32(0xE0001038, 0x0001 Items, ...)
T2A30 015:070.636   CPU_ReadMem(4 bytes @ 0xE0001038)
T2A30 015:071.363   Data:  00 02 00 00
T2A30 015:071.535   Debug reg: DWT_FUNC[1]
T2A30 015:071.647 - 1.157ms returns 1
T2A30 015:071.743 JLINK_ReadMemU32(0xE0001048, 0x0001 Items, ...)
T2A30 015:071.846   CPU_ReadMem(4 bytes @ 0xE0001048)
T2A30 015:072.567   Data:  00 00 00 00
T2A30 015:072.760   Debug reg: DWT_FUNC[2]
T2A30 015:072.880 - 1.176ms returns 1
T2A30 015:072.978 JLINK_ReadMemU32(0xE0001058, 0x0001 Items, ...)
T2A30 015:073.085   CPU_ReadMem(4 bytes @ 0xE0001058)
T2A30 015:073.853   Data:  00 00 00 00
T2A30 015:074.032   Debug reg: DWT_FUNC[3]
T2A30 015:074.153 - 1.215ms returns 1
T2A30 015:074.473 JLINK_ReadReg(R0)
T2A30 015:074.582 - 0.152ms returns 0x00000000
T2A30 015:074.672 JLINK_ReadReg(R1)
T2A30 015:074.752 - 0.120ms returns 0x20003108
T2A30 015:074.839 JLINK_ReadReg(R2)
T2A30 015:074.918 - 0.118ms returns 0x00000006
T2A30 015:075.004 JLINK_ReadReg(R3)
T2A30 015:075.081 - 0.117ms returns 0x00000000
T2A30 015:075.167 JLINK_ReadReg(R4)
T2A30 015:075.245 - 0.118ms returns 0x00000000
T2A30 015:075.338 JLINK_ReadReg(R5)
T2A30 015:075.417 - 0.118ms returns 0x00025CF0
T2A30 015:075.503 JLINK_ReadReg(R6)
T2A30 015:075.582 - 0.118ms returns 0x00000000
T2A30 015:075.667 JLINK_ReadReg(R7)
T2A30 015:075.745 - 0.117ms returns 0x00000000
T2A30 015:075.830 JLINK_ReadReg(R8)
T2A30 015:075.908 - 0.117ms returns 0x00000000
T2A30 015:075.993 JLINK_ReadReg(R9)
T2A30 015:076.071 - 0.116ms returns 0x00000000
T2A30 015:076.156 JLINK_ReadReg(R10)
T2A30 015:076.233 - 0.117ms returns 0x00000000
T2A30 015:076.324 JLINK_ReadReg(R11)
T2A30 015:076.403 - 0.118ms returns 0x00000000
T2A30 015:076.488 JLINK_ReadReg(R12)
T2A30 015:076.565 - 0.116ms returns 0x00000001
T2A30 015:076.651 JLINK_ReadReg(R13 (SP))
T2A30 015:076.729 - 0.118ms returns 0x20004310
T2A30 015:076.815 JLINK_ReadReg(R14)
T2A30 015:076.893 - 0.117ms returns 0x00023505
T2A30 015:076.979 JLINK_ReadReg(R15 (PC))
T2A30 015:077.057 - 0.123ms returns 0x00022FCC
T2A30 015:077.159 JLINK_ReadReg(XPSR)
T2A30 015:077.238 - 0.119ms returns 0x61000000
T2A30 015:077.330 JLINK_ReadReg(MSP)
